
T38A8 000:068 SEGGER J-Link V6.14b Log File (0000ms, 0035ms total)
T38A8 000:068 DLL Compiled: Mar  9 2017 08:46:04 (0000ms, 0035ms total)
T38A8 000:068 Logging started @ 2020-04-10 18:57 (0000ms, 0035ms total)
T38A8 000:068 JLINK_SetWarnOutHandler(...) (0000ms, 0035ms total)
T38A8 000:068 JLINK_OpenEx(...)
Firmware: J-Link ARM-OB STM32 compiled Aug 22 2012 19:52:04
Hardware: V7.00
S/N: 20090928
Feature(s): RDI,FlashDL,FlashBP,JFlash,GDBFullWEBSRV Webserver running on local port 19080 (0027ms, 0062ms total)
T38A8 000:068   returns O.K. (0027ms, 0062ms total)
T38A8 000:095 JLINK_SetErrorOutHandler(...) (0000ms, 0062ms total)
T38A8 000:095 JLINK_ExecCommand("ProjectFile = "F:\Git\Company\AQ_1\JLinkSettings.ini"", ...). d:\Program Files (x86)\SEGGER\JLink_V614b\JLinkDevices.xml evaluated successfully.  returns 0x00 (0154ms, 0216ms total)
T38A8 000:253 JLINK_ExecCommand("Device = STM32F103ZE", ...). Device "STM32F103ZE" selected.  returns 0x00 (0008ms, 0224ms total)
T38A8 000:261 JLINK_ExecCommand("DisableConnectionTimeout", ...).   returns 0x01 (0000ms, 0224ms total)
T38A8 000:261 JLINK_GetHardwareVersion()  returns 0x11170 (0000ms, 0224ms total)
T38A8 000:261 JLINK_GetDLLVersion()  returns 61402 (0000ms, 0224ms total)
T38A8 000:261 JLINK_GetFirmwareString(...) (0000ms, 0224ms total)
T38A8 000:274 JLINK_GetDLLVersion()  returns 61402 (0000ms, 0224ms total)
T38A8 000:274 JLINK_GetCompileDateTime() (0000ms, 0224ms total)
T38A8 000:278 JLINK_GetFirmwareString(...) (0000ms, 0224ms total)
T38A8 000:282 JLINK_GetHardwareVersion()  returns 0x11170 (0000ms, 0224ms total)
T38A8 000:298 JLINK_TIF_Select(JLINKARM_TIF_SWD)  returns 0x00 (0002ms, 0226ms total)
T38A8 000:300 JLINK_SetSpeed(1000) (0000ms, 0226ms total)
T38A8 000:300 JLINK_GetId() >0x108 TIF>Found SWD-DP with ID 0x1BA01477 >0x0D TIF> >0x28 TIF> >0x0D TIF> >0x28 TIF> >0x0D TIF> >0x28 TIF> >0x0D TIF> >0x28 TIF> >0x0D TIF> >0x21 TIF> >0x0D TIF> >0x28 TIF> >0x0D TIF> >0x28 TIF> >0x0D TIF> >0x28 TIF> >0x0D TIF> >0x21 TIF> >0x0D TIF> >0x21 TIF> >0x0D TIF> >0x28 TIF> >0x0D TIF> >0x21 TIF> >0x0D TIF> >0x21 TIF> >0x0D TIF> >0x28 TIF> >0x0D TIF> >0x21 TIF> >0x0D TIF> >0x21 TIF> >0x0D TIF> >0x28 TIF> >0x0D TIF> >0x21 TIF> >0x0D TIF> >0x21 TIF> >0x0D TIF>
 >0x28 TIF> >0x0D TIF> >0x21 TIF> >0x0D TIF> >0x21 TIF> >0x0D TIF> >0x28 TIF> >0x0D TIF> >0x21 TIF> >0x0D TIF> >0x21 TIF> >0x0D TIF> >0x28 TIF> >0x0D TIF> >0x21 TIF> >0x0D TIF> >0x21 TIF> >0x108 TIF>Found SWD-DP with ID 0x1BA01477 >0x0D TIF> >0x28 TIF> >0x0D TIF> >0x28 TIF> >0x0D TIF> >0x28 TIF> >0x0D TIF> >0x28 TIF> >0x0D TIF> >0x21 TIF> >0x0D TIF> >0x28 TIF> >0x0D TIF> >0x28 TIF> >0x0D TIF> >0x21 TIF> >0x0D TIF> >0x21 TIF> >0x0D TIF> >0x21 TIF>AP-IDR: 0x14770011, Type: AHB-AP
AHB-AP ROM: 0xE00FF000 (Base addr. of first ROM table) >0x0D TIF> >0x28 TIF> >0x0D TIF> >0x28 TIF> >0x0D TIF> >0x28 TIF> >0x0D TIF> >0x21 TIF> >0x0D TIF> >0x21 TIF> >0x0D TIF> >0x28 TIF> >0x0D TIF> >0x21 TIF> >0x0D TIF> >0x21 TIF>Found Cortex-M3 r1p1, Little endian. -- CPU_ReadMem(4 bytes @ 0xE000EDF0) -- CPU_WriteMem(4 bytes @ 0xE000EDF0) -- CPU_ReadMem(4 bytes @ 0xE0002000)FPUnit: 6 code (BP) slots and 2 literal slots -- CPU_ReadMem(4 bytes @ 0xE000EDFC) -- CPU_WriteMem(4 bytes @ 0xE000EDFC)
 -- CPU_ReadMem(4 bytes @ 0xE0001000) -- CPU_WriteMem(4 bytes @ 0xE0001000) -- CPU_ReadMem(4 bytes @ 0xE000ED88) -- CPU_WriteMem(4 bytes @ 0xE000ED88) -- CPU_ReadMem(4 bytes @ 0xE000ED88) -- CPU_WriteMem(4 bytes @ 0xE000ED88)CoreSight components:ROMTbl 0 @ E00FF000 -- CPU_ReadMem(16 bytes @ 0xE00FF000) -- CPU_ReadMem(16 bytes @ 0xE000EFF0) -- CPU_ReadMem(16 bytes @ 0xE000EFE0)ROMTbl 0 [0]: FFF0F000, CID: B105E00D, PID: 001BB000 SCS -- CPU_ReadMem(16 bytes @ 0xE0001FF0)
 -- CPU_ReadMem(16 bytes @ 0xE0001FE0)ROMTbl 0 [1]: FFF02000, CID: B105E00D, PID: 001BB002 DWT -- CPU_ReadMem(16 bytes @ 0xE0002FF0) -- CPU_ReadMem(16 bytes @ 0xE0002FE0)ROMTbl 0 [2]: FFF03000, CID: B105E00D, PID: 000BB003 FPB -- CPU_ReadMem(16 bytes @ 0xE0000FF0) -- CPU_ReadMem(16 bytes @ 0xE0000FE0)ROMTbl 0 [3]: FFF01000, CID: B105E00D, PID: 001BB001 ITM -- CPU_ReadMem(16 bytes @ 0xE00FF010) -- CPU_ReadMem(16 bytes @ 0xE0040FF0) -- CPU_ReadMem(16 bytes @ 0xE0040FE0)
ROMTbl 0 [4]: FFF41000, CID: B105900D, PID: 001BB923 TPIU-Lite -- CPU_ReadMem(16 bytes @ 0xE0041FF0) -- CPU_ReadMem(16 bytes @ 0xE0041FE0)ROMTbl 0 [5]: FFF42000, CID: B105900D, PID: 101BB924 ETM-M3 >0x0D TIF> >0x21 TIF>  returns 0x1BA01477 (0173ms, 0399ms total)
T38A8 000:473 JLINK_GetDLLVersion()  returns 61402 (0000ms, 0399ms total)
T38A8 000:473 JLINK_CORE_GetFound()  returns 0x30000FF (0000ms, 0399ms total)
T38A8 000:473 JLINK_GetDebugInfo(0x100 = JLINKARM_ROM_TABLE_ADDR_INDEX) -- Value=0xE00FF000  returns 0x00 (0000ms, 0399ms total)
T38A8 000:478 JLINK_GetDebugInfo(0x100 = JLINKARM_ROM_TABLE_ADDR_INDEX) -- Value=0xE00FF000  returns 0x00 (0000ms, 0399ms total)
T38A8 000:478 JLINK_GetDebugInfo(0x101 = JLINKARM_DEBUG_INFO_ETM_ADDR_INDEX) -- Value=0xE0041000  returns 0x00 (0000ms, 0399ms total)
T38A8 000:478 JLINK_GetDebugInfo(0x102 = JLINKARM_DEBUG_INFO_MTB_ADDR_INDEX) -- Value=0x00000000  returns 0x00 (0000ms, 0399ms total)
T38A8 000:478 JLINK_GetDebugInfo(0x103 = JLINKARM_DEBUG_INFO_TPIU_ADDR_INDEX) -- Value=0xE0040000  returns 0x00 (0000ms, 0399ms total)
T38A8 000:478 JLINK_GetDebugInfo(0x104 = JLINKARM_DEBUG_INFO_ITM_ADDR_INDEX) -- Value=0xE0000000  returns 0x00 (0000ms, 0399ms total)
T38A8 000:478 JLINK_GetDebugInfo(0x105 = JLINKARM_DEBUG_INFO_DWT_ADDR_INDEX) -- Value=0xE0001000  returns 0x00 (0000ms, 0399ms total)
T38A8 000:478 JLINK_GetDebugInfo(0x106 = JLINKARM_DEBUG_INFO_FPB_ADDR_INDEX) -- Value=0xE0002000  returns 0x00 (0000ms, 0399ms total)
T38A8 000:478 JLINK_GetDebugInfo(0x107 = JLINKARM_DEBUG_INFO_NVIC_ADDR_INDEX) -- Value=0xE000E000  returns 0x00 (0000ms, 0399ms total)
T38A8 000:478 JLINK_GetDebugInfo(0x10C = JLINKARM_DEBUG_INFO_DBG_ADDR_INDEX) -- Value=0xE000EDF0  returns 0x00 (0000ms, 0399ms total)
T38A8 000:478 JLINK_ReadMemU32(0xE000ED00, 0x0001 Items, ...) -- CPU is running -- CPU_ReadMem(4 bytes @ 0xE000ED00) - Data: 31 C2 1F 41  returns 0x01 (0002ms, 0401ms total)
T38A8 000:480 JLINK_SetResetType(JLINKARM_CM3_RESET_TYPE_NORMAL)  returns JLINKARM_CM3_RESET_TYPE_NORMAL (0000ms, 0401ms total)
T38A8 000:480 JLINK_Reset() -- CPU is running -- CPU_WriteMem(4 bytes @ 0xE000EDF0) -- CPU is running -- CPU_WriteMem(4 bytes @ 0xE000EDFC) >0x35 TIF> -- CPU is running -- CPU_WriteMem(4 bytes @ 0xE000ED0C) >0x0D TIF> >0x28 TIF> -- CPU is running -- CPU_ReadMem(4 bytes @ 0xE000EDF0) -- CPU is running -- CPU_ReadMem(4 bytes @ 0xE000EDF0) -- CPU is running -- CPU_WriteMem(4 bytes @ 0xE000EDF0) -- CPU is running -- CPU_WriteMem(4 bytes @ 0xE000EDFC) -- CPU is running -- CPU_ReadMem(4 bytes @ 0xE000EDF0)
 -- CPU_WriteMem(4 bytes @ 0xE0002000) -- CPU_ReadMem(4 bytes @ 0xE000EDFC) -- CPU_ReadMem(4 bytes @ 0xE0001000) (0091ms, 0492ms total)
T38A8 000:571 JLINK_Halt()  returns 0x00 (0000ms, 0492ms total)
T38A8 000:571 JLINK_IsHalted()  returns TRUE (0000ms, 0492ms total)
T38A8 000:571 JLINK_ReadMemU32(0xE000EDF0, 0x0001 Items, ...) -- CPU_ReadMem(4 bytes @ 0xE000EDF0) - Data: 03 00 03 00  returns 0x01 (0003ms, 0495ms total)
T38A8 000:574 JLINK_WriteU32(0xE000EDF0, 0xA05F0003) -- CPU_WriteMem(4 bytes @ 0xE000EDF0)  returns 0x00 (0001ms, 0496ms total)
T38A8 000:575 JLINK_WriteU32(0xE000EDFC, 0x01000000) -- CPU_WriteMem(4 bytes @ 0xE000EDFC)  returns 0x00 (0003ms, 0499ms total)
T38A8 000:632 JLINK_GetHWStatus(...)  returns 0x00 (0000ms, 0499ms total)
T38A8 000:652 JLINK_GetNumBPUnits(Type = 0xFFFFFF00)  returns 0x06 (0000ms, 0499ms total)
T38A8 000:653 JLINK_GetNumBPUnits(Type = 0xF0)  returns 0x2000 (0000ms, 0500ms total)
T38A8 000:653 JLINK_GetNumWPUnits()  returns 0x04 (0000ms, 0500ms total)
T38A8 000:671 JLINK_GetSpeed()  returns 0x3E8 (0000ms, 0500ms total)
T38A8 000:683 JLINK_ReadMemU32(0xE000E004, 0x0001 Items, ...) -- CPU_ReadMem(4 bytes @ 0xE000E004) - Data: 01 00 00 00  returns 0x01 (0002ms, 0502ms total)
T38A8 000:685 JLINK_ReadMemU32(0xE000E004, 0x0001 Items, ...) -- CPU_ReadMem(4 bytes @ 0xE000E004) - Data: 01 00 00 00  returns 0x01 (0001ms, 0503ms total)
T38A8 000:686 JLINK_WriteMem(0xE0001000, 0x001C Bytes, ...) - Data: 01 00 00 00 00 00 00 00 00 00 00 00 00 00 00 00 ... -- CPU_WriteMem(28 bytes @ 0xE0001000)  returns 0x1C (0003ms, 0506ms total)
T38A8 000:689 JLINK_ReadMem (0xE0001000, 0x001C Bytes, ...) -- CPU_ReadMem(28 bytes @ 0xE0001000) - Data: 01 00 00 40 00 00 00 00 00 00 00 00 00 00 00 00 ...  returns 0x00 (0002ms, 0508ms total)
T38A8 000:691 JLINK_Halt()  returns 0x00 (0001ms, 0509ms total)
T38A8 000:692 JLINK_IsHalted()  returns TRUE (0000ms, 0509ms total)
T38A8 000:697 JLINK_WriteMem(0x20000000, 0x0164 Bytes, ...) - Data: 00 BE 0A E0 0D 78 2D 06 68 40 08 24 40 00 00 D3 ... -- CPU_WriteMem(356 bytes @ 0x20000000)  returns 0x164 (0014ms, 0523ms total)
T38A8 000:711 JLINK_WriteReg(R0, 0x08000000)  returns 0x00 (0000ms, 0523ms total)
T38A8 000:711 JLINK_WriteReg(R1, 0x00B71B00)  returns 0x00 (0000ms, 0523ms total)
T38A8 000:711 JLINK_WriteReg(R2, 0x00000001)  returns 0x00 (0000ms, 0523ms total)
T38A8 000:711 JLINK_WriteReg(R3, 0x00000000)  returns 0x00 (0000ms, 0523ms total)
T38A8 000:711 JLINK_WriteReg(R4, 0x00000000)  returns 0x00 (0001ms, 0524ms total)
T38A8 000:712 JLINK_WriteReg(R5, 0x00000000)  returns 0x00 (0000ms, 0524ms total)
T38A8 000:712 JLINK_WriteReg(R6, 0x00000000)  returns 0x00 (0000ms, 0524ms total)
T38A8 000:712 JLINK_WriteReg(R7, 0x00000000)  returns 0x00 (0000ms, 0524ms total)
T38A8 000:712 JLINK_WriteReg(R8, 0x00000000)  returns 0x00 (0000ms, 0524ms total)
T38A8 000:712 JLINK_WriteReg(R9, 0x20000160)  returns 0x00 (0000ms, 0524ms total)
T38A8 000:712 JLINK_WriteReg(R10, 0x00000000)  returns 0x00 (0000ms, 0524ms total)
T38A8 000:712 JLINK_WriteReg(R11, 0x00000000)  returns 0x00 (0000ms, 0524ms total)
T38A8 000:712 JLINK_WriteReg(R12, 0x00000000)  returns 0x00 (0000ms, 0524ms total)
T38A8 000:712 JLINK_WriteReg(R13 (SP), 0x20000800)  returns 0x00 (0000ms, 0524ms total)
T38A8 000:712 JLINK_WriteReg(R14, 0x20000001)  returns 0x00 (0000ms, 0524ms total)
T38A8 000:712 JLINK_WriteReg(R15 (PC), 0x20000038)  returns 0x00 (0000ms, 0524ms total)
T38A8 000:712 JLINK_WriteReg(XPSR, 0x01000000)  returns 0x00 (0000ms, 0524ms total)
T38A8 000:712 JLINK_WriteReg(MSP, 0x20000800)  returns 0x00 (0000ms, 0524ms total)
T38A8 000:712 JLINK_WriteReg(PSP, 0x20000800)  returns 0x00 (0000ms, 0524ms total)
T38A8 000:712 JLINK_WriteReg(CFBP, 0x00000000)  returns 0x00 (0001ms, 0525ms total)
T38A8 000:713 JLINK_SetBPEx(Addr = 0x20000000, Type = 0xFFFFFFF2) -- CPU_ReadMem(2 bytes @ 0x20000000)  returns 0x00000001 (0001ms, 0526ms total)
T38A8 000:714 JLINK_Go() -- CPU_WriteMem(2 bytes @ 0x20000000) -- CPU_ReadMem(4 bytes @ 0xE0001000) -- CPU_WriteMem(4 bytes @ 0xE0002008) -- CPU_WriteMem(4 bytes @ 0xE000200C) -- CPU_WriteMem(4 bytes @ 0xE0002010) -- CPU_WriteMem(4 bytes @ 0xE0002014) -- CPU_WriteMem(4 bytes @ 0xE0002018) -- CPU_WriteMem(4 bytes @ 0xE000201C) -- CPU_WriteMem(4 bytes @ 0xE0001004) (0016ms, 0542ms total)
T38A8 000:731 JLINK_IsHalted() -- CPU_ReadMem(2 bytes @ 0x20000000)  returns TRUE (0011ms, 0554ms total)
T38A8 000:742 JLINK_ReadReg(R15 (PC))  returns 0x20000000 (0000ms, 0543ms total)
T38A8 000:742 JLINK_ClrBPEx(BPHandle = 0x00000001)  returns 0x00 (0000ms, 0543ms total)
T38A8 000:742 JLINK_ReadReg(R0)  returns 0x00000000 (0000ms, 0543ms total)
T38A8 000:742 JLINK_WriteReg(R0, 0x08000000)  returns 0x00 (0001ms, 0544ms total)
T38A8 000:743 JLINK_WriteReg(R1, 0x00B71B00)  returns 0x00 (0000ms, 0544ms total)
T38A8 000:743 JLINK_WriteReg(R2, 0x00000001)  returns 0x00 (0000ms, 0544ms total)
T38A8 000:743 JLINK_WriteReg(R3, 0x00000000)  returns 0x00 (0000ms, 0544ms total)
T38A8 000:743 JLINK_WriteReg(R4, 0x00000000)  returns 0x00 (0000ms, 0544ms total)
T38A8 000:743 JLINK_WriteReg(R5, 0x00000000)  returns 0x00 (0000ms, 0544ms total)
T38A8 000:743 JLINK_WriteReg(R6, 0x00000000)  returns 0x00 (0000ms, 0544ms total)
T38A8 000:743 JLINK_WriteReg(R7, 0x00000000)  returns 0x00 (0000ms, 0544ms total)
T38A8 000:743 JLINK_WriteReg(R8, 0x00000000)  returns 0x00 (0000ms, 0544ms total)
T38A8 000:743 JLINK_WriteReg(R9, 0x20000160)  returns 0x00 (0000ms, 0544ms total)
T38A8 000:743 JLINK_WriteReg(R10, 0x00000000)  returns 0x00 (0000ms, 0544ms total)
T38A8 000:743 JLINK_WriteReg(R11, 0x00000000)  returns 0x00 (0000ms, 0544ms total)
T38A8 000:743 JLINK_WriteReg(R12, 0x00000000)  returns 0x00 (0000ms, 0544ms total)
T38A8 000:743 JLINK_WriteReg(R13 (SP), 0x20000800)  returns 0x00 (0001ms, 0545ms total)
T38A8 000:744 JLINK_WriteReg(R14, 0x20000001)  returns 0x00 (0000ms, 0545ms total)
T38A8 000:744 JLINK_WriteReg(R15 (PC), 0x2000007C)  returns 0x00 (0000ms, 0545ms total)
T38A8 000:744 JLINK_WriteReg(XPSR, 0x01000000)  returns 0x00 (0000ms, 0545ms total)
T38A8 000:744 JLINK_WriteReg(MSP, 0x20000800)  returns 0x00 (0000ms, 0545ms total)
T38A8 000:744 JLINK_WriteReg(PSP, 0x20000800)  returns 0x00 (0000ms, 0545ms total)
T38A8 000:744 JLINK_WriteReg(CFBP, 0x00000000)  returns 0x00 (0000ms, 0545ms total)
T38A8 000:744 JLINK_SetBPEx(Addr = 0x20000000, Type = 0xFFFFFFF2)  returns 0x00000002 (0000ms, 0545ms total)
T38A8 000:744 JLINK_Go() -- CPU_ReadMem(4 bytes @ 0xE0001000) (0006ms, 0551ms total)
T38A8 000:750 JLINK_IsHalted()  returns FALSE (0001ms, 0552ms total)
T38A8 000:809 JLINK_IsHalted() -- CPU_ReadMem(2 bytes @ 0x20000000)  returns TRUE (0010ms, 0561ms total)
T38A8 000:819 JLINK_ReadReg(R15 (PC))  returns 0x20000000 (0001ms, 0552ms total)
T38A8 000:820 JLINK_ClrBPEx(BPHandle = 0x00000002)  returns 0x00 (0000ms, 0552ms total)
T38A8 000:820 JLINK_ReadReg(R0)  returns 0x00000000 (0000ms, 0552ms total)
T38A8 000:875 JLINK_WriteReg(R0, 0x00000001)  returns 0x00 (0000ms, 0552ms total)
T38A8 000:875 JLINK_WriteReg(R1, 0x00B71B00)  returns 0x00 (0000ms, 0552ms total)
T38A8 000:875 JLINK_WriteReg(R2, 0x00000001)  returns 0x00 (0000ms, 0552ms total)
T38A8 000:875 JLINK_WriteReg(R3, 0x00000000)  returns 0x00 (0000ms, 0552ms total)
T38A8 000:875 JLINK_WriteReg(R4, 0x00000000)  returns 0x00 (0000ms, 0552ms total)
T38A8 000:875 JLINK_WriteReg(R5, 0x00000000)  returns 0x00 (0001ms, 0553ms total)
T38A8 000:876 JLINK_WriteReg(R6, 0x00000000)  returns 0x00 (0000ms, 0553ms total)
T38A8 000:876 JLINK_WriteReg(R7, 0x00000000)  returns 0x00 (0000ms, 0553ms total)
T38A8 000:876 JLINK_WriteReg(R8, 0x00000000)  returns 0x00 (0000ms, 0553ms total)
T38A8 000:876 JLINK_WriteReg(R9, 0x20000160)  returns 0x00 (0000ms, 0553ms total)
T38A8 000:876 JLINK_WriteReg(R10, 0x00000000)  returns 0x00 (0000ms, 0553ms total)
T38A8 000:876 JLINK_WriteReg(R11, 0x00000000)  returns 0x00 (0001ms, 0554ms total)
T38A8 000:877 JLINK_WriteReg(R12, 0x00000000)  returns 0x00 (0000ms, 0554ms total)
T38A8 000:877 JLINK_WriteReg(R13 (SP), 0x20000800)  returns 0x00 (0000ms, 0554ms total)
T38A8 000:877 JLINK_WriteReg(R14, 0x20000001)  returns 0x00 (0000ms, 0554ms total)
T38A8 000:877 JLINK_WriteReg(R15 (PC), 0x2000006A)  returns 0x00 (0000ms, 0554ms total)
T38A8 000:877 JLINK_WriteReg(XPSR, 0x01000000)  returns 0x00 (0001ms, 0555ms total)
T38A8 000:878 JLINK_WriteReg(MSP, 0x20000800)  returns 0x00 (0000ms, 0555ms total)
T38A8 000:878 JLINK_WriteReg(PSP, 0x20000800)  returns 0x00 (0000ms, 0555ms total)
T38A8 000:878 JLINK_WriteReg(CFBP, 0x00000000)  returns 0x00 (0000ms, 0555ms total)
T38A8 000:878 JLINK_SetBPEx(Addr = 0x20000000, Type = 0xFFFFFFF2)  returns 0x00000003 (0000ms, 0555ms total)
T38A8 000:878 JLINK_Go() -- CPU_ReadMem(4 bytes @ 0xE0001000) (0007ms, 0562ms total)
T38A8 000:885 JLINK_IsHalted() -- CPU_ReadMem(2 bytes @ 0x20000000)  returns TRUE (0013ms, 0575ms total)
T38A8 000:898 JLINK_ReadReg(R15 (PC))  returns 0x20000000 (0000ms, 0562ms total)
T38A8 000:898 JLINK_ClrBPEx(BPHandle = 0x00000003)  returns 0x00 (0000ms, 0562ms total)
T38A8 000:898 JLINK_ReadReg(R0)  returns 0x00000000 (0001ms, 0563ms total)
T38A8 000:925 JLINK_WriteMem(0x20000000, 0x0164 Bytes, ...) - Data: 00 BE 0A E0 0D 78 2D 06 68 40 08 24 40 00 00 D3 ... -- CPU_WriteMem(356 bytes @ 0x20000000)  returns 0x164 (0015ms, 0578ms total)
T38A8 000:940 JLINK_WriteReg(R0, 0x08000000)  returns 0x00 (0000ms, 0578ms total)
T38A8 000:940 JLINK_WriteReg(R1, 0x00B71B00)  returns 0x00 (0000ms, 0578ms total)
T38A8 000:940 JLINK_WriteReg(R2, 0x00000002)  returns 0x00 (0001ms, 0579ms total)
T38A8 000:941 JLINK_WriteReg(R3, 0x00000000)  returns 0x00 (0000ms, 0579ms total)
T38A8 000:941 JLINK_WriteReg(R4, 0x00000000)  returns 0x00 (0000ms, 0579ms total)
T38A8 000:941 JLINK_WriteReg(R5, 0x00000000)  returns 0x00 (0000ms, 0579ms total)
T38A8 000:941 JLINK_WriteReg(R6, 0x00000000)  returns 0x00 (0001ms, 0580ms total)
T38A8 000:942 JLINK_WriteReg(R7, 0x00000000)  returns 0x00 (0000ms, 0580ms total)
T38A8 000:942 JLINK_WriteReg(R8, 0x00000000)  returns 0x00 (0000ms, 0580ms total)
T38A8 000:942 JLINK_WriteReg(R9, 0x20000160)  returns 0x00 (0000ms, 0580ms total)
T38A8 000:943 JLINK_WriteReg(R10, 0x00000000)  returns 0x00 (0000ms, 0581ms total)
T38A8 000:943 JLINK_WriteReg(R11, 0x00000000)  returns 0x00 (0000ms, 0581ms total)
T38A8 000:943 JLINK_WriteReg(R12, 0x00000000)  returns 0x00 (0000ms, 0581ms total)
T38A8 000:943 JLINK_WriteReg(R13 (SP), 0x20000800)  returns 0x00 (0000ms, 0581ms total)
T38A8 000:943 JLINK_WriteReg(R14, 0x20000001)  returns 0x00 (0000ms, 0581ms total)
T38A8 000:943 JLINK_WriteReg(R15 (PC), 0x20000038)  returns 0x00 (0000ms, 0581ms total)
T38A8 000:943 JLINK_WriteReg(XPSR, 0x01000000)  returns 0x00 (0001ms, 0582ms total)
T38A8 000:944 JLINK_WriteReg(MSP, 0x20000800)  returns 0x00 (0000ms, 0582ms total)
T38A8 000:944 JLINK_WriteReg(PSP, 0x20000800)  returns 0x00 (0000ms, 0582ms total)
T38A8 000:944 JLINK_WriteReg(CFBP, 0x00000000)  returns 0x00 (0000ms, 0582ms total)
T38A8 000:944 JLINK_SetBPEx(Addr = 0x20000000, Type = 0xFFFFFFF2) -- CPU_ReadMem(2 bytes @ 0x20000000)  returns 0x00000004 (0002ms, 0584ms total)
T38A8 000:946 JLINK_Go() -- CPU_WriteMem(2 bytes @ 0x20000000) -- CPU_ReadMem(4 bytes @ 0xE0001000) (0010ms, 0594ms total)
T38A8 000:956 JLINK_IsHalted() -- CPU_ReadMem(2 bytes @ 0x20000000)  returns TRUE (0013ms, 0607ms total)
T38A8 000:969 JLINK_ReadReg(R15 (PC))  returns 0x20000000 (0000ms, 0594ms total)
T38A8 000:969 JLINK_ClrBPEx(BPHandle = 0x00000004)  returns 0x00 (0000ms, 0594ms total)
T38A8 000:969 JLINK_ReadReg(R0)  returns 0x00000000 (0000ms, 0594ms total)
T38A8 000:970 JLINK_WriteMem(0x20000164, 0x0400 Bytes, ...) - Data: B0 C9 00 20 45 01 00 08 4D 01 00 08 4F 01 00 08 ... -- CPU_WriteMem(1024 bytes @ 0x20000164)  returns 0x400 (0036ms, 0630ms total)
T38A8 001:006 JLINK_WriteReg(R0, 0x08000000)  returns 0x00 (0000ms, 0630ms total)
T38A8 001:007 JLINK_WriteReg(R1, 0x00000400)  returns 0x00 (0000ms, 0631ms total)
T38A8 001:007 JLINK_WriteReg(R2, 0x20000164)  returns 0x00 (0000ms, 0631ms total)
T38A8 001:007 JLINK_WriteReg(R3, 0x00000000)  returns 0x00 (0000ms, 0631ms total)
T38A8 001:007 JLINK_WriteReg(R4, 0x00000000)  returns 0x00 (0000ms, 0631ms total)
T38A8 001:007 JLINK_WriteReg(R5, 0x00000000)  returns 0x00 (0001ms, 0632ms total)
T38A8 001:008 JLINK_WriteReg(R6, 0x00000000)  returns 0x00 (0000ms, 0632ms total)
T38A8 001:008 JLINK_WriteReg(R7, 0x00000000)  returns 0x00 (0000ms, 0632ms total)
T38A8 001:008 JLINK_WriteReg(R8, 0x00000000)  returns 0x00 (0000ms, 0632ms total)
T38A8 001:008 JLINK_WriteReg(R9, 0x20000160)  returns 0x00 (0000ms, 0632ms total)
T38A8 001:008 JLINK_WriteReg(R10, 0x00000000)  returns 0x00 (0000ms, 0632ms total)
T38A8 001:009 JLINK_WriteReg(R11, 0x00000000)  returns 0x00 (0000ms, 0633ms total)
T38A8 001:009 JLINK_WriteReg(R12, 0x00000000)  returns 0x00 (0000ms, 0633ms total)
T38A8 001:009 JLINK_WriteReg(R13 (SP), 0x20000800)  returns 0x00 (0000ms, 0633ms total)
T38A8 001:009 JLINK_WriteReg(R14, 0x20000001)  returns 0x00 (0000ms, 0633ms total)
T38A8 001:009 JLINK_WriteReg(R15 (PC), 0x200000F4)  returns 0x00 (0000ms, 0633ms total)
T38A8 001:009 JLINK_WriteReg(XPSR, 0x01000000)  returns 0x00 (0000ms, 0633ms total)
T38A8 001:010 JLINK_WriteReg(MSP, 0x20000800)  returns 0x00 (0000ms, 0634ms total)
T38A8 001:010 JLINK_WriteReg(PSP, 0x20000800)  returns 0x00 (0000ms, 0634ms total)
T38A8 001:010 JLINK_WriteReg(CFBP, 0x00000000)  returns 0x00 (0000ms, 0634ms total)
T38A8 001:010 JLINK_SetBPEx(Addr = 0x20000000, Type = 0xFFFFFFF2)  returns 0x00000005 (0000ms, 0634ms total)
T38A8 001:010 JLINK_Go() -- CPU_ReadMem(4 bytes @ 0xE0001000) (0008ms, 0642ms total)
T38A8 001:018 JLINK_IsHalted()  returns FALSE (0002ms, 0644ms total)
T38A8 001:039 JLINK_IsHalted()  returns FALSE (0002ms, 0644ms total)
T38A8 001:043 JLINK_IsHalted()  returns FALSE (0001ms, 0643ms total)
T38A8 001:047 JLINK_IsHalted()  returns FALSE (0002ms, 0644ms total)
T38A8 001:051 JLINK_IsHalted() -- CPU_ReadMem(2 bytes @ 0x20000000)  returns TRUE (0012ms, 0654ms total)
T38A8 001:063 JLINK_ReadReg(R15 (PC))  returns 0x20000000 (0000ms, 0642ms total)
T38A8 001:063 JLINK_ClrBPEx(BPHandle = 0x00000005)  returns 0x00 (0000ms, 0642ms total)
T38A8 001:063 JLINK_ReadReg(R0)  returns 0x00000000 (0001ms, 0643ms total)
T38A8 001:065 JLINK_WriteMem(0x20000164, 0x0400 Bytes, ...) - Data: 4F F0 00 42 02 EA 07 52 CD E9 00 42 00 1C 41 F5 ... -- CPU_WriteMem(1024 bytes @ 0x20000164)  returns 0x400 (0036ms, 0679ms total)
T38A8 001:103 JLINK_WriteReg(R0, 0x08000400)  returns 0x00 (0000ms, 0679ms total)
T38A8 001:103 JLINK_WriteReg(R1, 0x00000400)  returns 0x00 (0000ms, 0679ms total)
T38A8 001:103 JLINK_WriteReg(R2, 0x20000164)  returns 0x00 (0000ms, 0679ms total)
T38A8 001:103 JLINK_WriteReg(R3, 0x00000000)  returns 0x00 (0000ms, 0679ms total)
T38A8 001:103 JLINK_WriteReg(R4, 0x00000000)  returns 0x00 (0000ms, 0679ms total)
T38A8 001:103 JLINK_WriteReg(R5, 0x00000000)  returns 0x00 (0000ms, 0679ms total)
T38A8 001:104 JLINK_WriteReg(R6, 0x00000000)  returns 0x00 (0000ms, 0680ms total)
T38A8 001:104 JLINK_WriteReg(R7, 0x00000000)  returns 0x00 (0000ms, 0680ms total)
T38A8 001:104 JLINK_WriteReg(R8, 0x00000000)  returns 0x00 (0000ms, 0680ms total)
T38A8 001:104 JLINK_WriteReg(R9, 0x20000160)  returns 0x00 (0000ms, 0680ms total)
T38A8 001:104 JLINK_WriteReg(R10, 0x00000000)  returns 0x00 (0000ms, 0680ms total)
T38A8 001:104 JLINK_WriteReg(R11, 0x00000000)  returns 0x00 (0000ms, 0680ms total)
T38A8 001:104 JLINK_WriteReg(R12, 0x00000000)  returns 0x00 (0000ms, 0680ms total)
T38A8 001:105 JLINK_WriteReg(R13 (SP), 0x20000800)  returns 0x00 (0000ms, 0681ms total)
T38A8 001:105 JLINK_WriteReg(R14, 0x20000001)  returns 0x00 (0000ms, 0681ms total)
T38A8 001:105 JLINK_WriteReg(R15 (PC), 0x200000F4)  returns 0x00 (0000ms, 0681ms total)
T38A8 001:105 JLINK_WriteReg(XPSR, 0x01000000)  returns 0x00 (0000ms, 0681ms total)
T38A8 001:105 JLINK_WriteReg(MSP, 0x20000800)  returns 0x00 (0000ms, 0681ms total)
T38A8 001:105 JLINK_WriteReg(PSP, 0x20000800)  returns 0x00 (0000ms, 0681ms total)
T38A8 001:105 JLINK_WriteReg(CFBP, 0x00000000)  returns 0x00 (0001ms, 0682ms total)
T38A8 001:106 JLINK_SetBPEx(Addr = 0x20000000, Type = 0xFFFFFFF2)  returns 0x00000006 (0000ms, 0682ms total)
T38A8 001:106 JLINK_Go() -- CPU_ReadMem(4 bytes @ 0xE0001000) (0008ms, 0690ms total)
T38A8 001:114 JLINK_IsHalted()  returns FALSE (0002ms, 0692ms total)
T38A8 001:134 JLINK_IsHalted()  returns FALSE (0002ms, 0692ms total)
T38A8 001:138 JLINK_IsHalted()  returns FALSE (0002ms, 0692ms total)
T38A8 001:142 JLINK_IsHalted()  returns FALSE (0002ms, 0692ms total)
T38A8 001:146 JLINK_IsHalted() -- CPU_ReadMem(2 bytes @ 0x20000000)  returns TRUE (0012ms, 0702ms total)
T38A8 001:158 JLINK_ReadReg(R15 (PC))  returns 0x20000000 (0001ms, 0691ms total)
T38A8 001:159 JLINK_ClrBPEx(BPHandle = 0x00000006)  returns 0x00 (0000ms, 0691ms total)
T38A8 001:159 JLINK_ReadReg(R0)  returns 0x00000000 (0000ms, 0691ms total)
T38A8 001:161 JLINK_WriteMem(0x20000164, 0x0400 Bytes, ...) - Data: 00 28 01 DB C0 F1 00 40 00 29 01 DB C1 F1 00 41 ... -- CPU_WriteMem(1024 bytes @ 0x20000164)  returns 0x400 (0036ms, 0727ms total)
T38A8 001:197 JLINK_WriteReg(R0, 0x08000800)  returns 0x00 (0000ms, 0727ms total)
T38A8 001:197 JLINK_WriteReg(R1, 0x00000400)  returns 0x00 (0000ms, 0727ms total)
T38A8 001:197 JLINK_WriteReg(R2, 0x20000164)  returns 0x00 (0000ms, 0727ms total)
T38A8 001:197 JLINK_WriteReg(R3, 0x00000000)  returns 0x00 (0001ms, 0728ms total)
T38A8 001:198 JLINK_WriteReg(R4, 0x00000000)  returns 0x00 (0000ms, 0728ms total)
T38A8 001:198 JLINK_WriteReg(R5, 0x00000000)  returns 0x00 (0000ms, 0728ms total)
T38A8 001:198 JLINK_WriteReg(R6, 0x00000000)  returns 0x00 (0000ms, 0728ms total)
T38A8 001:198 JLINK_WriteReg(R7, 0x00000000)  returns 0x00 (0000ms, 0728ms total)
T38A8 001:198 JLINK_WriteReg(R8, 0x00000000)  returns 0x00 (0000ms, 0728ms total)
T38A8 001:198 JLINK_WriteReg(R9, 0x20000160)  returns 0x00 (0000ms, 0728ms total)
T38A8 001:198 JLINK_WriteReg(R10, 0x00000000)  returns 0x00 (0000ms, 0728ms total)
T38A8 001:199 JLINK_WriteReg(R11, 0x00000000)  returns 0x00 (0000ms, 0729ms total)
T38A8 001:199 JLINK_WriteReg(R12, 0x00000000)  returns 0x00 (0000ms, 0729ms total)
T38A8 001:199 JLINK_WriteReg(R13 (SP), 0x20000800)  returns 0x00 (0000ms, 0729ms total)
T38A8 001:199 JLINK_WriteReg(R14, 0x20000001)  returns 0x00 (0000ms, 0729ms total)
T38A8 001:199 JLINK_WriteReg(R15 (PC), 0x200000F4)  returns 0x00 (0000ms, 0729ms total)
T38A8 001:199 JLINK_WriteReg(XPSR, 0x01000000)  returns 0x00 (0000ms, 0729ms total)
T38A8 001:199 JLINK_WriteReg(MSP, 0x20000800)  returns 0x00 (0000ms, 0729ms total)
T38A8 001:199 JLINK_WriteReg(PSP, 0x20000800)  returns 0x00 (0001ms, 0730ms total)
T38A8 001:200 JLINK_WriteReg(CFBP, 0x00000000)  returns 0x00 (0000ms, 0730ms total)
T38A8 001:200 JLINK_SetBPEx(Addr = 0x20000000, Type = 0xFFFFFFF2)  returns 0x00000007 (0000ms, 0730ms total)
T38A8 001:200 JLINK_Go() -- CPU_ReadMem(4 bytes @ 0xE0001000) (0007ms, 0737ms total)
T38A8 001:208 JLINK_IsHalted()  returns FALSE (0002ms, 0740ms total)
T38A8 001:220 JLINK_IsHalted()  returns FALSE (0002ms, 0740ms total)
T38A8 001:224 JLINK_IsHalted()  returns FALSE (0002ms, 0740ms total)
T38A8 001:228 JLINK_IsHalted()  returns FALSE (0002ms, 0740ms total)
T38A8 001:232 JLINK_IsHalted()  returns FALSE (0002ms, 0740ms total)
T38A8 001:236 JLINK_IsHalted()  returns FALSE (0002ms, 0740ms total)
T38A8 001:240 JLINK_IsHalted() -- CPU_ReadMem(2 bytes @ 0x20000000)  returns TRUE (0012ms, 0750ms total)
T38A8 001:252 JLINK_ReadReg(R15 (PC))  returns 0x20000000 (0000ms, 0738ms total)
T38A8 001:252 JLINK_ClrBPEx(BPHandle = 0x00000007)  returns 0x00 (0001ms, 0739ms total)
T38A8 001:253 JLINK_ReadReg(R0)  returns 0x00000000 (0000ms, 0739ms total)
T38A8 001:255 JLINK_WriteMem(0x20000164, 0x0400 Bytes, ...) - Data: 10 2C EF DD 00 20 05 49 C8 73 01 48 00 88 10 BD ... -- CPU_WriteMem(1024 bytes @ 0x20000164)  returns 0x400 (0035ms, 0774ms total)
T38A8 001:290 JLINK_WriteReg(R0, 0x08000C00)  returns 0x00 (0001ms, 0775ms total)
T38A8 001:291 JLINK_WriteReg(R1, 0x00000400)  returns 0x00 (0000ms, 0775ms total)
T38A8 001:291 JLINK_WriteReg(R2, 0x20000164)  returns 0x00 (0000ms, 0775ms total)
T38A8 001:291 JLINK_WriteReg(R3, 0x00000000)  returns 0x00 (0000ms, 0775ms total)
T38A8 001:291 JLINK_WriteReg(R4, 0x00000000)  returns 0x00 (0000ms, 0775ms total)
T38A8 001:291 JLINK_WriteReg(R5, 0x00000000)  returns 0x00 (0000ms, 0775ms total)
T38A8 001:292 JLINK_WriteReg(R6, 0x00000000)  returns 0x00 (0000ms, 0776ms total)
T38A8 001:292 JLINK_WriteReg(R7, 0x00000000)  returns 0x00 (0000ms, 0776ms total)
T38A8 001:292 JLINK_WriteReg(R8, 0x00000000)  returns 0x00 (0000ms, 0776ms total)
T38A8 001:292 JLINK_WriteReg(R9, 0x20000160)  returns 0x00 (0000ms, 0776ms total)
T38A8 001:292 JLINK_WriteReg(R10, 0x00000000)  returns 0x00 (0000ms, 0776ms total)
T38A8 001:292 JLINK_WriteReg(R11, 0x00000000)  returns 0x00 (0000ms, 0776ms total)
T38A8 001:292 JLINK_WriteReg(R12, 0x00000000)  returns 0x00 (0000ms, 0776ms total)
T38A8 001:292 JLINK_WriteReg(R13 (SP), 0x20000800)  returns 0x00 (0001ms, 0777ms total)
T38A8 001:293 JLINK_WriteReg(R14, 0x20000001)  returns 0x00 (0000ms, 0777ms total)
T38A8 001:293 JLINK_WriteReg(R15 (PC), 0x200000F4)  returns 0x00 (0000ms, 0777ms total)
T38A8 001:293 JLINK_WriteReg(XPSR, 0x01000000)  returns 0x00 (0000ms, 0777ms total)
T38A8 001:293 JLINK_WriteReg(MSP, 0x20000800)  returns 0x00 (0000ms, 0777ms total)
T38A8 001:293 JLINK_WriteReg(PSP, 0x20000800)  returns 0x00 (0000ms, 0777ms total)
T38A8 001:293 JLINK_WriteReg(CFBP, 0x00000000)  returns 0x00 (0000ms, 0777ms total)
T38A8 001:294 JLINK_SetBPEx(Addr = 0x20000000, Type = 0xFFFFFFF2)  returns 0x00000008 (0000ms, 0778ms total)
T38A8 001:294 JLINK_Go() -- CPU_ReadMem(4 bytes @ 0xE0001000) (0008ms, 0786ms total)
T38A8 001:302 JLINK_IsHalted()  returns FALSE (0002ms, 0788ms total)
T38A8 001:306 JLINK_IsHalted()  returns FALSE (0002ms, 0788ms total)
T38A8 001:310 JLINK_IsHalted()  returns FALSE (0002ms, 0788ms total)
T38A8 001:314 JLINK_IsHalted()  returns FALSE (0002ms, 0788ms total)
T38A8 001:318 JLINK_IsHalted()  returns FALSE (0002ms, 0788ms total)
T38A8 001:326 JLINK_IsHalted()  returns FALSE (0002ms, 0788ms total)
T38A8 001:330 JLINK_IsHalted()  returns FALSE (0002ms, 0788ms total)
T38A8 001:334 JLINK_IsHalted() -- CPU_ReadMem(2 bytes @ 0x20000000)  returns TRUE (0012ms, 0798ms total)
T38A8 001:347 JLINK_ReadReg(R15 (PC))  returns 0x20000000 (0000ms, 0786ms total)
T38A8 001:347 JLINK_ClrBPEx(BPHandle = 0x00000008)  returns 0x00 (0000ms, 0786ms total)
T38A8 001:347 JLINK_ReadReg(R0)  returns 0x00000000 (0000ms, 0786ms total)
T38A8 001:349 JLINK_WriteMem(0x20000164, 0x0400 Bytes, ...) - Data: 39 5D 14 4A A0 1C 10 5C 81 42 01 D1 09 F1 01 09 ... -- CPU_WriteMem(1024 bytes @ 0x20000164)  returns 0x400 (0035ms, 0821ms total)
T38A8 001:385 JLINK_WriteReg(R0, 0x08001000)  returns 0x00 (0000ms, 0821ms total)
T38A8 001:385 JLINK_WriteReg(R1, 0x00000400)  returns 0x00 (0000ms, 0821ms total)
T38A8 001:385 JLINK_WriteReg(R2, 0x20000164)  returns 0x00 (0000ms, 0821ms total)
T38A8 001:385 JLINK_WriteReg(R3, 0x00000000)  returns 0x00 (0000ms, 0821ms total)
T38A8 001:385 JLINK_WriteReg(R4, 0x00000000)  returns 0x00 (0000ms, 0821ms total)
T38A8 001:385 JLINK_WriteReg(R5, 0x00000000)  returns 0x00 (0000ms, 0821ms total)
T38A8 001:386 JLINK_WriteReg(R6, 0x00000000)  returns 0x00 (0000ms, 0822ms total)
T38A8 001:386 JLINK_WriteReg(R7, 0x00000000)  returns 0x00 (0000ms, 0822ms total)
T38A8 001:386 JLINK_WriteReg(R8, 0x00000000)  returns 0x00 (0000ms, 0822ms total)
T38A8 001:386 JLINK_WriteReg(R9, 0x20000160)  returns 0x00 (0001ms, 0823ms total)
T38A8 001:387 JLINK_WriteReg(R10, 0x00000000)  returns 0x00 (0000ms, 0823ms total)
T38A8 001:387 JLINK_WriteReg(R11, 0x00000000)  returns 0x00 (0000ms, 0823ms total)
T38A8 001:387 JLINK_WriteReg(R12, 0x00000000)  returns 0x00 (0000ms, 0823ms total)
T38A8 001:387 JLINK_WriteReg(R13 (SP), 0x20000800)  returns 0x00 (0000ms, 0823ms total)
T38A8 001:387 JLINK_WriteReg(R14, 0x20000001)  returns 0x00 (0001ms, 0824ms total)
T38A8 001:388 JLINK_WriteReg(R15 (PC), 0x200000F4)  returns 0x00 (0000ms, 0824ms total)
T38A8 001:388 JLINK_WriteReg(XPSR, 0x01000000)  returns 0x00 (0000ms, 0824ms total)
T38A8 001:388 JLINK_WriteReg(MSP, 0x20000800)  returns 0x00 (0000ms, 0824ms total)
T38A8 001:388 JLINK_WriteReg(PSP, 0x20000800)  returns 0x00 (0000ms, 0824ms total)
T38A8 001:388 JLINK_WriteReg(CFBP, 0x00000000)  returns 0x00 (0000ms, 0824ms total)
T38A8 001:388 JLINK_SetBPEx(Addr = 0x20000000, Type = 0xFFFFFFF2)  returns 0x00000009 (0000ms, 0824ms total)
T38A8 001:389 JLINK_Go() -- CPU_ReadMem(4 bytes @ 0xE0001000) (0007ms, 0831ms total)
T38A8 001:396 JLINK_IsHalted()  returns FALSE (0002ms, 0833ms total)
T38A8 001:400 JLINK_IsHalted()  returns FALSE (0001ms, 0832ms total)
T38A8 001:404 JLINK_IsHalted()  returns FALSE (0001ms, 0832ms total)
T38A8 001:407 JLINK_IsHalted()  returns FALSE (0002ms, 0833ms total)
T38A8 001:411 JLINK_IsHalted()  returns FALSE (0001ms, 0832ms total)
T38A8 001:414 JLINK_IsHalted()  returns FALSE (0001ms, 0832ms total)
T38A8 001:417 JLINK_IsHalted()  returns FALSE (0001ms, 0832ms total)
T38A8 001:420 JLINK_IsHalted()  returns FALSE (0001ms, 0832ms total)
T38A8 001:424 JLINK_IsHalted()  returns FALSE (0001ms, 0832ms total)
T38A8 001:427 JLINK_IsHalted() -- CPU_ReadMem(2 bytes @ 0x20000000)  returns TRUE (0011ms, 0842ms total)
T38A8 001:438 JLINK_ReadReg(R15 (PC))  returns 0x20000000 (0000ms, 0831ms total)
T38A8 001:438 JLINK_ClrBPEx(BPHandle = 0x00000009)  returns 0x00 (0000ms, 0831ms total)
T38A8 001:438 JLINK_ReadReg(R0)  returns 0x00000000 (0000ms, 0831ms total)
T38A8 001:440 JLINK_WriteMem(0x20000164, 0x0400 Bytes, ...) - Data: 05 1E 00 D1 B6 E6 00 BF 06 F0 01 00 18 B1 39 46 ... -- CPU_WriteMem(1024 bytes @ 0x20000164)  returns 0x400 (0035ms, 0866ms total)
T38A8 001:476 JLINK_WriteReg(R0, 0x08001400)  returns 0x00 (0000ms, 0866ms total)
T38A8 001:476 JLINK_WriteReg(R1, 0x00000400)  returns 0x00 (0000ms, 0866ms total)
T38A8 001:476 JLINK_WriteReg(R2, 0x20000164)  returns 0x00 (0000ms, 0866ms total)
T38A8 001:476 JLINK_WriteReg(R3, 0x00000000)  returns 0x00 (0000ms, 0866ms total)
T38A8 001:476 JLINK_WriteReg(R4, 0x00000000)  returns 0x00 (0000ms, 0866ms total)
T38A8 001:476 JLINK_WriteReg(R5, 0x00000000)  returns 0x00 (0000ms, 0866ms total)
T38A8 001:476 JLINK_WriteReg(R6, 0x00000000)  returns 0x00 (0000ms, 0866ms total)
T38A8 001:476 JLINK_WriteReg(R7, 0x00000000)  returns 0x00 (0000ms, 0866ms total)
T38A8 001:476 JLINK_WriteReg(R8, 0x00000000)  returns 0x00 (0000ms, 0866ms total)
T38A8 001:476 JLINK_WriteReg(R9, 0x20000160)  returns 0x00 (0000ms, 0866ms total)
T38A8 001:476 JLINK_WriteReg(R10, 0x00000000)  returns 0x00 (0000ms, 0866ms total)
T38A8 001:476 JLINK_WriteReg(R11, 0x00000000)  returns 0x00 (0001ms, 0867ms total)
T38A8 001:477 JLINK_WriteReg(R12, 0x00000000)  returns 0x00 (0000ms, 0867ms total)
T38A8 001:477 JLINK_WriteReg(R13 (SP), 0x20000800)  returns 0x00 (0000ms, 0867ms total)
T38A8 001:477 JLINK_WriteReg(R14, 0x20000001)  returns 0x00 (0000ms, 0867ms total)
T38A8 001:477 JLINK_WriteReg(R15 (PC), 0x200000F4)  returns 0x00 (0000ms, 0867ms total)
T38A8 001:477 JLINK_WriteReg(XPSR, 0x01000000)  returns 0x00 (0000ms, 0867ms total)
T38A8 001:477 JLINK_WriteReg(MSP, 0x20000800)  returns 0x00 (0000ms, 0867ms total)
T38A8 001:477 JLINK_WriteReg(PSP, 0x20000800)  returns 0x00 (0000ms, 0867ms total)
T38A8 001:477 JLINK_WriteReg(CFBP, 0x00000000)  returns 0x00 (0000ms, 0867ms total)
T38A8 001:477 JLINK_SetBPEx(Addr = 0x20000000, Type = 0xFFFFFFF2)  returns 0x0000000A (0000ms, 0867ms total)
T38A8 001:477 JLINK_Go() -- CPU_ReadMem(4 bytes @ 0xE0001000) (0007ms, 0874ms total)
T38A8 001:485 JLINK_IsHalted()  returns FALSE (0001ms, 0876ms total)
T38A8 001:490 JLINK_IsHalted()  returns FALSE (0001ms, 0876ms total)
T38A8 001:493 JLINK_IsHalted()  returns FALSE (0001ms, 0876ms total)
T38A8 001:496 JLINK_IsHalted()  returns FALSE (0001ms, 0876ms total)
T38A8 001:499 JLINK_IsHalted()  returns FALSE (0001ms, 0876ms total)
T38A8 001:502 JLINK_IsHalted()  returns FALSE (0001ms, 0876ms total)
T38A8 001:505 JLINK_IsHalted()  returns FALSE (0001ms, 0876ms total)
T38A8 001:508 JLINK_IsHalted()  returns FALSE (0001ms, 0876ms total)
T38A8 001:511 JLINK_IsHalted()  returns FALSE (0001ms, 0876ms total)
T38A8 001:514 JLINK_IsHalted()  returns FALSE (0001ms, 0876ms total)
T38A8 001:517 JLINK_IsHalted() -- CPU_ReadMem(2 bytes @ 0x20000000)  returns TRUE (0011ms, 0886ms total)
T38A8 001:528 JLINK_ReadReg(R15 (PC))  returns 0x20000000 (0000ms, 0875ms total)
T38A8 001:528 JLINK_ClrBPEx(BPHandle = 0x0000000A)  returns 0x00 (0000ms, 0875ms total)
T38A8 001:528 JLINK_ReadReg(R0)  returns 0x00000000 (0000ms, 0875ms total)
T38A8 001:529 JLINK_WriteMem(0x20000164, 0x0400 Bytes, ...) - Data: 78 1E 07 1E 00 D1 81 E7 A4 1C 08 F1 01 00 80 46 ... -- CPU_WriteMem(1024 bytes @ 0x20000164)  returns 0x400 (0036ms, 0911ms total)
T38A8 001:565 JLINK_WriteReg(R0, 0x08001800)  returns 0x00 (0000ms, 0911ms total)
T38A8 001:565 JLINK_WriteReg(R1, 0x00000400)  returns 0x00 (0000ms, 0911ms total)
T38A8 001:565 JLINK_WriteReg(R2, 0x20000164)  returns 0x00 (0000ms, 0911ms total)
T38A8 001:565 JLINK_WriteReg(R3, 0x00000000)  returns 0x00 (0000ms, 0911ms total)
T38A8 001:566 JLINK_WriteReg(R4, 0x00000000)  returns 0x00 (0000ms, 0912ms total)
T38A8 001:566 JLINK_WriteReg(R5, 0x00000000)  returns 0x00 (0000ms, 0912ms total)
T38A8 001:566 JLINK_WriteReg(R6, 0x00000000)  returns 0x00 (0000ms, 0912ms total)
T38A8 001:566 JLINK_WriteReg(R7, 0x00000000)  returns 0x00 (0000ms, 0912ms total)
T38A8 001:566 JLINK_WriteReg(R8, 0x00000000)  returns 0x00 (0000ms, 0912ms total)
T38A8 001:566 JLINK_WriteReg(R9, 0x20000160)  returns 0x00 (0000ms, 0912ms total)
T38A8 001:566 JLINK_WriteReg(R10, 0x00000000)  returns 0x00 (0001ms, 0913ms total)
T38A8 001:567 JLINK_WriteReg(R11, 0x00000000)  returns 0x00 (0000ms, 0913ms total)
T38A8 001:567 JLINK_WriteReg(R12, 0x00000000)  returns 0x00 (0000ms, 0913ms total)
T38A8 001:567 JLINK_WriteReg(R13 (SP), 0x20000800)  returns 0x00 (0000ms, 0913ms total)
T38A8 001:567 JLINK_WriteReg(R14, 0x20000001)  returns 0x00 (0000ms, 0913ms total)
T38A8 001:567 JLINK_WriteReg(R15 (PC), 0x200000F4)  returns 0x00 (0000ms, 0913ms total)
T38A8 001:567 JLINK_WriteReg(XPSR, 0x01000000)  returns 0x00 (0000ms, 0913ms total)
T38A8 001:567 JLINK_WriteReg(MSP, 0x20000800)  returns 0x00 (0000ms, 0913ms total)
T38A8 001:568 JLINK_WriteReg(PSP, 0x20000800)  returns 0x00 (0000ms, 0914ms total)
T38A8 001:568 JLINK_WriteReg(CFBP, 0x00000000)  returns 0x00 (0000ms, 0914ms total)
T38A8 001:568 JLINK_SetBPEx(Addr = 0x20000000, Type = 0xFFFFFFF2)  returns 0x0000000B (0000ms, 0914ms total)
T38A8 001:568 JLINK_Go() -- CPU_ReadMem(4 bytes @ 0xE0001000) (0008ms, 0922ms total)
T38A8 001:576 JLINK_IsHalted()  returns FALSE (0002ms, 0924ms total)
T38A8 001:594 JLINK_IsHalted()  returns FALSE (0001ms, 0923ms total)
T38A8 001:597 JLINK_IsHalted()  returns FALSE (0002ms, 0924ms total)
T38A8 001:602 JLINK_IsHalted()  returns FALSE (0001ms, 0923ms total)
T38A8 001:606 JLINK_IsHalted() -- CPU_ReadMem(2 bytes @ 0x20000000)  returns TRUE (0012ms, 0934ms total)
T38A8 001:618 JLINK_ReadReg(R15 (PC))  returns 0x20000000 (0000ms, 0922ms total)
T38A8 001:618 JLINK_ClrBPEx(BPHandle = 0x0000000B)  returns 0x00 (0000ms, 0922ms total)
T38A8 001:618 JLINK_ReadReg(R0)  returns 0x00000000 (0000ms, 0922ms total)
T38A8 001:620 JLINK_WriteMem(0x20000164, 0x0400 Bytes, ...) - Data: 07 49 08 61 25 80 F0 02 00 F0 18 F8 06 46 04 48 ... -- CPU_WriteMem(1024 bytes @ 0x20000164)  returns 0x400 (0036ms, 0958ms total)
T38A8 001:656 JLINK_WriteReg(R0, 0x08001C00)  returns 0x00 (0000ms, 0958ms total)
T38A8 001:657 JLINK_WriteReg(R1, 0x00000400)  returns 0x00 (0000ms, 0959ms total)
T38A8 001:657 JLINK_WriteReg(R2, 0x20000164)  returns 0x00 (0000ms, 0959ms total)
T38A8 001:657 JLINK_WriteReg(R3, 0x00000000)  returns 0x00 (0000ms, 0959ms total)
T38A8 001:657 JLINK_WriteReg(R4, 0x00000000)  returns 0x00 (0000ms, 0959ms total)
T38A8 001:657 JLINK_WriteReg(R5, 0x00000000)  returns 0x00 (0001ms, 0960ms total)
T38A8 001:658 JLINK_WriteReg(R6, 0x00000000)  returns 0x00 (0000ms, 0960ms total)
T38A8 001:658 JLINK_WriteReg(R7, 0x00000000)  returns 0x00 (0000ms, 0960ms total)
T38A8 001:658 JLINK_WriteReg(R8, 0x00000000)  returns 0x00 (0001ms, 0961ms total)
T38A8 001:659 JLINK_WriteReg(R9, 0x20000160)  returns 0x00 (0000ms, 0961ms total)
T38A8 001:659 JLINK_WriteReg(R10, 0x00000000)  returns 0x00 (0000ms, 0961ms total)
T38A8 001:659 JLINK_WriteReg(R11, 0x00000000)  returns 0x00 (0000ms, 0961ms total)
T38A8 001:659 JLINK_WriteReg(R12, 0x00000000)  returns 0x00 (0000ms, 0961ms total)
T38A8 001:659 JLINK_WriteReg(R13 (SP), 0x20000800)  returns 0x00 (0000ms, 0961ms total)
T38A8 001:659 JLINK_WriteReg(R14, 0x20000001)  returns 0x00 (0000ms, 0961ms total)
T38A8 001:659 JLINK_WriteReg(R15 (PC), 0x200000F4)  returns 0x00 (0001ms, 0962ms total)
T38A8 001:660 JLINK_WriteReg(XPSR, 0x01000000)  returns 0x00 (0000ms, 0962ms total)
T38A8 001:660 JLINK_WriteReg(MSP, 0x20000800)  returns 0x00 (0000ms, 0962ms total)
T38A8 001:660 JLINK_WriteReg(PSP, 0x20000800)  returns 0x00 (0000ms, 0962ms total)
T38A8 001:660 JLINK_WriteReg(CFBP, 0x00000000)  returns 0x00 (0000ms, 0962ms total)
T38A8 001:660 JLINK_SetBPEx(Addr = 0x20000000, Type = 0xFFFFFFF2)  returns 0x0000000C (0000ms, 0962ms total)
T38A8 001:660 JLINK_Go() -- CPU_ReadMem(4 bytes @ 0xE0001000) (0008ms, 0970ms total)
T38A8 001:668 JLINK_IsHalted()  returns FALSE (0002ms, 0972ms total)
T38A8 001:676 JLINK_IsHalted()  returns FALSE (0002ms, 0972ms total)
T38A8 001:683 JLINK_IsHalted()  returns FALSE (0002ms, 0972ms total)
T38A8 001:687 JLINK_IsHalted()  returns FALSE (0002ms, 0972ms total)
T38A8 001:691 JLINK_IsHalted()  returns FALSE (0002ms, 0972ms total)
T38A8 001:695 JLINK_IsHalted()  returns FALSE (0002ms, 0972ms total)
T38A8 001:699 JLINK_IsHalted() -- CPU_ReadMem(2 bytes @ 0x20000000)  returns TRUE (0012ms, 0982ms total)
T38A8 001:711 JLINK_ReadReg(R15 (PC))  returns 0x20000000 (0000ms, 0970ms total)
T38A8 001:711 JLINK_ClrBPEx(BPHandle = 0x0000000C)  returns 0x00 (0001ms, 0971ms total)
T38A8 001:712 JLINK_ReadReg(R0)  returns 0x00000000 (0000ms, 0971ms total)
T38A8 001:714 JLINK_WriteMem(0x20000164, 0x0400 Bytes, ...) - Data: B1 F8 00 C0 0C EA 03 06 9E 42 20 D1 83 00 4F F0 ... -- CPU_WriteMem(1024 bytes @ 0x20000164)  returns 0x400 (0035ms, 1006ms total)
T38A8 001:750 JLINK_WriteReg(R0, 0x08002000)  returns 0x00 (0000ms, 1007ms total)
T38A8 001:750 JLINK_WriteReg(R1, 0x00000400)  returns 0x00 (0000ms, 1007ms total)
T38A8 001:750 JLINK_WriteReg(R2, 0x20000164)  returns 0x00 (0000ms, 1007ms total)
T38A8 001:750 JLINK_WriteReg(R3, 0x00000000)  returns 0x00 (0000ms, 1007ms total)
T38A8 001:750 JLINK_WriteReg(R4, 0x00000000)  returns 0x00 (0000ms, 1007ms total)
T38A8 001:750 JLINK_WriteReg(R5, 0x00000000)  returns 0x00 (0001ms, 1008ms total)
T38A8 001:751 JLINK_WriteReg(R6, 0x00000000)  returns 0x00 (0000ms, 1008ms total)
T38A8 001:751 JLINK_WriteReg(R7, 0x00000000)  returns 0x00 (0000ms, 1008ms total)
T38A8 001:751 JLINK_WriteReg(R8, 0x00000000)  returns 0x00 (0000ms, 1008ms total)
T38A8 001:751 JLINK_WriteReg(R9, 0x20000160)  returns 0x00 (0000ms, 1008ms total)
T38A8 001:751 JLINK_WriteReg(R10, 0x00000000)  returns 0x00 (0000ms, 1008ms total)
T38A8 001:751 JLINK_WriteReg(R11, 0x00000000)  returns 0x00 (0000ms, 1008ms total)
T38A8 001:751 JLINK_WriteReg(R12, 0x00000000)  returns 0x00 (0000ms, 1008ms total)
T38A8 001:752 JLINK_WriteReg(R13 (SP), 0x20000800)  returns 0x00 (0000ms, 1009ms total)
T38A8 001:752 JLINK_WriteReg(R14, 0x20000001)  returns 0x00 (0000ms, 1009ms total)
T38A8 001:752 JLINK_WriteReg(R15 (PC), 0x200000F4)  returns 0x00 (0000ms, 1009ms total)
T38A8 001:752 JLINK_WriteReg(XPSR, 0x01000000)  returns 0x00 (0000ms, 1009ms total)
T38A8 001:752 JLINK_WriteReg(MSP, 0x20000800)  returns 0x00 (0000ms, 1009ms total)
T38A8 001:752 JLINK_WriteReg(PSP, 0x20000800)  returns 0x00 (0000ms, 1009ms total)
T38A8 001:752 JLINK_WriteReg(CFBP, 0x00000000)  returns 0x00 (0000ms, 1009ms total)
T38A8 001:752 JLINK_SetBPEx(Addr = 0x20000000, Type = 0xFFFFFFF2)  returns 0x0000000D (0001ms, 1010ms total)
T38A8 001:753 JLINK_Go() -- CPU_ReadMem(4 bytes @ 0xE0001000) (0007ms, 1017ms total)
T38A8 001:760 JLINK_IsHalted()  returns FALSE (0002ms, 1019ms total)
T38A8 001:771 JLINK_IsHalted()  returns FALSE (0002ms, 1019ms total)
T38A8 001:775 JLINK_IsHalted()  returns FALSE (0002ms, 1019ms total)
T38A8 001:779 JLINK_IsHalted()  returns FALSE (0001ms, 1018ms total)
T38A8 001:783 JLINK_IsHalted()  returns FALSE (0001ms, 1018ms total)
T38A8 001:787 JLINK_IsHalted()  returns FALSE (0001ms, 1018ms total)
T38A8 001:791 JLINK_IsHalted() -- CPU_ReadMem(2 bytes @ 0x20000000)  returns TRUE (0012ms, 1029ms total)
T38A8 001:803 JLINK_ReadReg(R15 (PC))  returns 0x20000000 (0001ms, 1018ms total)
T38A8 001:804 JLINK_ClrBPEx(BPHandle = 0x0000000D)  returns 0x00 (0000ms, 1018ms total)
T38A8 001:804 JLINK_ReadReg(R0)  returns 0x00000000 (0000ms, 1018ms total)
T38A8 001:806 JLINK_WriteMem(0x20000164, 0x0400 Bytes, ...) - Data: 68 68 10 F8 31 00 03 49 89 69 89 7D 48 43 70 BD ... -- CPU_WriteMem(1024 bytes @ 0x20000164)  returns 0x400 (0036ms, 1054ms total)
T38A8 001:842 JLINK_WriteReg(R0, 0x08002400)  returns 0x00 (0001ms, 1055ms total)
T38A8 001:843 JLINK_WriteReg(R1, 0x00000400)  returns 0x00 (0000ms, 1055ms total)
T38A8 001:843 JLINK_WriteReg(R2, 0x20000164)  returns 0x00 (0000ms, 1055ms total)
T38A8 001:843 JLINK_WriteReg(R3, 0x00000000)  returns 0x00 (0000ms, 1055ms total)
T38A8 001:843 JLINK_WriteReg(R4, 0x00000000)  returns 0x00 (0000ms, 1055ms total)
T38A8 001:843 JLINK_WriteReg(R5, 0x00000000)  returns 0x00 (0000ms, 1055ms total)
T38A8 001:843 JLINK_WriteReg(R6, 0x00000000)  returns 0x00 (0000ms, 1055ms total)
T38A8 001:843 JLINK_WriteReg(R7, 0x00000000)  returns 0x00 (0001ms, 1056ms total)
T38A8 001:844 JLINK_WriteReg(R8, 0x00000000)  returns 0x00 (0000ms, 1056ms total)
T38A8 001:844 JLINK_WriteReg(R9, 0x20000160)  returns 0x00 (0000ms, 1056ms total)
T38A8 001:844 JLINK_WriteReg(R10, 0x00000000)  returns 0x00 (0000ms, 1056ms total)
T38A8 001:844 JLINK_WriteReg(R11, 0x00000000)  returns 0x00 (0000ms, 1056ms total)
T38A8 001:844 JLINK_WriteReg(R12, 0x00000000)  returns 0x00 (0000ms, 1056ms total)
T38A8 001:844 JLINK_WriteReg(R13 (SP), 0x20000800)  returns 0x00 (0000ms, 1056ms total)
T38A8 001:844 JLINK_WriteReg(R14, 0x20000001)  returns 0x00 (0001ms, 1057ms total)
T38A8 001:845 JLINK_WriteReg(R15 (PC), 0x200000F4)  returns 0x00 (0000ms, 1057ms total)
T38A8 001:845 JLINK_WriteReg(XPSR, 0x01000000)  returns 0x00 (0000ms, 1057ms total)
T38A8 001:845 JLINK_WriteReg(MSP, 0x20000800)  returns 0x00 (0000ms, 1057ms total)
T38A8 001:845 JLINK_WriteReg(PSP, 0x20000800)  returns 0x00 (0000ms, 1057ms total)
T38A8 001:845 JLINK_WriteReg(CFBP, 0x00000000)  returns 0x00 (0000ms, 1057ms total)
T38A8 001:845 JLINK_SetBPEx(Addr = 0x20000000, Type = 0xFFFFFFF2)  returns 0x0000000E (0000ms, 1057ms total)
T38A8 001:845 JLINK_Go() -- CPU_ReadMem(4 bytes @ 0xE0001000) (0008ms, 1065ms total)
T38A8 001:853 JLINK_IsHalted()  returns FALSE (0002ms, 1067ms total)
T38A8 001:857 JLINK_IsHalted()  returns FALSE (0002ms, 1067ms total)
T38A8 001:861 JLINK_IsHalted()  returns FALSE (0002ms, 1067ms total)
T38A8 001:869 JLINK_IsHalted()  returns FALSE (0001ms, 1066ms total)
T38A8 001:873 JLINK_IsHalted()  returns FALSE (0002ms, 1067ms total)
T38A8 001:877 JLINK_IsHalted()  returns FALSE (0001ms, 1066ms total)
T38A8 001:881 JLINK_IsHalted()  returns FALSE (0001ms, 1066ms total)
T38A8 001:885 JLINK_IsHalted() -- CPU_ReadMem(2 bytes @ 0x20000000)  returns TRUE (0012ms, 1077ms total)
T38A8 001:897 JLINK_ReadReg(R15 (PC))  returns 0x20000000 (0000ms, 1065ms total)
T38A8 001:897 JLINK_ClrBPEx(BPHandle = 0x0000000E)  returns 0x00 (0000ms, 1065ms total)
T38A8 001:897 JLINK_ReadReg(R0)  returns 0x00000000 (0000ms, 1065ms total)
T38A8 001:898 JLINK_WriteMem(0x20000164, 0x0400 Bytes, ...) - Data: FF F7 A4 FE 4F F4 AF 73 22 46 4F F4 95 71 20 46 ... -- CPU_WriteMem(1024 bytes @ 0x20000164)  returns 0x400 (0036ms, 1101ms total)
T38A8 001:934 JLINK_WriteReg(R0, 0x08002800)  returns 0x00 (0000ms, 1101ms total)
T38A8 001:934 JLINK_WriteReg(R1, 0x00000400)  returns 0x00 (0000ms, 1101ms total)
T38A8 001:934 JLINK_WriteReg(R2, 0x20000164)  returns 0x00 (0000ms, 1101ms total)
T38A8 001:934 JLINK_WriteReg(R3, 0x00000000)  returns 0x00 (0000ms, 1101ms total)
T38A8 001:934 JLINK_WriteReg(R4, 0x00000000)  returns 0x00 (0000ms, 1101ms total)
T38A8 001:934 JLINK_WriteReg(R5, 0x00000000)  returns 0x00 (0000ms, 1101ms total)
T38A8 001:934 JLINK_WriteReg(R6, 0x00000000)  returns 0x00 (0000ms, 1101ms total)
T38A8 001:934 JLINK_WriteReg(R7, 0x00000000)  returns 0x00 (0000ms, 1101ms total)
T38A8 001:934 JLINK_WriteReg(R8, 0x00000000)  returns 0x00 (0001ms, 1102ms total)
T38A8 001:935 JLINK_WriteReg(R9, 0x20000160)  returns 0x00 (0000ms, 1102ms total)
T38A8 001:935 JLINK_WriteReg(R10, 0x00000000)  returns 0x00 (0000ms, 1102ms total)
T38A8 001:935 JLINK_WriteReg(R11, 0x00000000)  returns 0x00 (0000ms, 1102ms total)
T38A8 001:935 JLINK_WriteReg(R12, 0x00000000)  returns 0x00 (0000ms, 1102ms total)
T38A8 001:935 JLINK_WriteReg(R13 (SP), 0x20000800)  returns 0x00 (0000ms, 1102ms total)
T38A8 001:935 JLINK_WriteReg(R14, 0x20000001)  returns 0x00 (0000ms, 1102ms total)
T38A8 001:935 JLINK_WriteReg(R15 (PC), 0x200000F4)  returns 0x00 (0000ms, 1102ms total)
T38A8 001:935 JLINK_WriteReg(XPSR, 0x01000000)  returns 0x00 (0000ms, 1102ms total)
T38A8 001:935 JLINK_WriteReg(MSP, 0x20000800)  returns 0x00 (0000ms, 1102ms total)
T38A8 001:935 JLINK_WriteReg(PSP, 0x20000800)  returns 0x00 (0000ms, 1102ms total)
T38A8 001:935 JLINK_WriteReg(CFBP, 0x00000000)  returns 0x00 (0000ms, 1102ms total)
T38A8 001:935 JLINK_SetBPEx(Addr = 0x20000000, Type = 0xFFFFFFF2)  returns 0x0000000F (0000ms, 1102ms total)
T38A8 001:935 JLINK_Go() -- CPU_ReadMem(4 bytes @ 0xE0001000) (0007ms, 1109ms total)
T38A8 001:942 JLINK_IsHalted()  returns FALSE (0002ms, 1111ms total)
T38A8 001:946 JLINK_IsHalted()  returns FALSE (0001ms, 1110ms total)
T38A8 001:949 JLINK_IsHalted()  returns FALSE (0001ms, 1110ms total)
T38A8 001:952 JLINK_IsHalted()  returns FALSE (0001ms, 1110ms total)
T38A8 001:955 JLINK_IsHalted()  returns FALSE (0001ms, 1110ms total)
T38A8 001:958 JLINK_IsHalted()  returns FALSE (0001ms, 1110ms total)
T38A8 001:961 JLINK_IsHalted()  returns FALSE (0001ms, 1110ms total)
T38A8 001:964 JLINK_IsHalted()  returns FALSE (0001ms, 1110ms total)
T38A8 001:967 JLINK_IsHalted()  returns FALSE (0001ms, 1110ms total)
T38A8 001:970 JLINK_IsHalted()  returns FALSE (0001ms, 1110ms total)
